Index;Frequency (Hz);Z' (Ω);-Z'' (Ω);Z (Ω);-Phase (°);Time (s)
1;1000000;14.5423228816315;0.89190107847217;14.5696479822748;3.50963445642403;6.34233398398715
2;686650;14.5266462900679;1.18297271111083;14.5747341955858;4.65558994073257;8.81992697773182
3;471490;14.6875621935445;1.63774038214359;14.7785884558892;6.36249821697258;11.1554719718351
4;323750;14.8874928641491;2.18993867055064;15.0476999957091;8.36815197333597;12.4568609685494
5;222300;15.1422092054952;2.92221170140557;15.4216024086609;10.9229177254613;14.7626509627279
6;152640;15.402405168023;3.9370794941821;15.8976312670615;14.3386104822664;16.0435799594939
7;104810;15.6976085575004;5.36833829278079;16.5901769264299;18.8798911712984;17.2949569563344
8;71969;16.0573910839749;7.41004486695294;17.6846988482692;24.7720262110018;19.6007499505129
9;49417;16.44307311854;10.3263897847907;19.416719073239;32.129170479617;20.8724379473022
10;33932;16.9358838240073;14.5222195149399;22.3096172208394;40.6125021928284;23.153503941543
11;23300;17.5631915994232;20.5569116186274;27.0379791118735;49.4904439076505;25.3534039359888
12;15999;18.4617013288383;29.2432590476334;34.5832707487626;57.7351771887811;27.5633019304094
13;10985;19.8020849204266;41.672409699598;46.1379702345794;64.5836554955278;29.6622769251099
14;7543.1;22.0563176497127;59.4163821846008;63.3781320344137;69.6342633952942;34.2800389134512
15;5179.5;25.2765274219755;84.7057730331519;88.3966674918105;73.3846949521241;36.4188259080513
16;3556.5;30.4952402800079;120.744347847913;124.535766818024;75.8257694612368;38.6335689024596
17;2442.1;39.521502781232;172.254184372384;176.729887726672;77.0778699313814;40.6267978974272
18;1676.8;55.8976524965624;245.021016823886;251.316227570043;77.1488129334514;42.5547258925596
19;1151.4;86.3551946198088;346.478657332046;357.077974151924;76.0049256045391;44.5326468875659
20;790.6;144.994027234255;492.753378660552;513.643027904592;73.6033364237185;48.4075848777826
21;542.87;250.078511947771;673.992680910625;718.891783274161;69.6431116821638;51.4609238700737
22;372.76;431.553242351968;883.876132791146;983.603181726415;63.9760186280221;52.6617748670418
23;255.95;712.535472993225;1083.35536186343;1296.67483987001;56.666613417273;54.0540788635266
24;175.75;1074.80517834958;1213.47203901306;1621.02454049085;48.4678149592921;55.4920338598961
25;120.68;1448.44191234389;1246.87234149536;1911.19716654786;40.7230861047626;57.9134718537825
26;82.864;1767.74267390435;1227.60058536728;2152.18896901192;34.7778643032867;59.2857418503179
27;56.899;2034.15379385939;1227.3626641832;2375.75267368121;31.1058367623975;60.8392458463957
28;39.069;2299.31799663824;1281.58735462527;2632.36194266668;29.1342974166575;62.4782538422576
29;26.827;2620.55116594468;1367.19560865631;2955.75916570737;27.5519784368816;64.0722468382331
30;18.421;3006.72009417246;1419.93584931271;3325.1441383591;25.2792149869448;66.0742648331785
31;12.649;3403.62401947999;1394.66568055249;3678.2806889214;22.2818085391129;68.1472258279448
32;8.6851;3741.07721367569;1318.0190427989;3966.46352761046;19.4078723090669;70.4113748222284
33;5.9636;4013.56807298888;1258.40709971672;4206.22361568344;17.4082033485198;72.7770798162555
34;4.0949;4264.33044524909;1255.55255942074;4445.32635199557;16.406081615225;75.182668810182
35;2.8118;4548.43707006655;1300.15231955821;4730.61051391976;15.9523701717135;77.6287368040063
36;1.9307;4880.14772777772;1337.87711117267;5060.21313874562;15.3307960616964;82.8046137909384
37;1.3257;5243.11927272509;1327.23695102662;5408.49864862622;14.2053795410095;85.4481117842643
38;0.9103;5590.51715622503;1274.1401334821;5733.87435804066;12.8390332491999;92.4137587666777
39;0.62506;5873.05101113749;1214.52509103026;5997.31601436553;11.6838596553721;95.637297758539
40;0.42919;6134.00330924232;1207.73662748294;6251.76969818623;11.138608377203;102.623054740902
41;0.29471;6433.85004624428;1231.4149168009;6550.63425287027;10.8351604049267;107.076228729659
42;0.20236;6778.79704490261;1239.10803093129;6891.11588121247;10.3588323708224;118.468638700895
43;0.13895;7163.47255971895;1160.75654960776;7256.90670198424;9.20410861255888;125.559381682993
44;0.09541;7490.72252174588;982.014810450762;7554.81813055322;7.46873910751729;134.994466659172
45;0.065513;7721.85598325838;775.169668891032;7760.66671373999;5.73251472554331;163.795431586456
46;0.044984;7857.11036157658;573.732893604087;7878.02974525974;4.1763742948483;181.224908542451
47;0.030888;7932.4115723703;408.792165801262;7942.93801992026;2.95009453592108;205.62354248085
48;0.02121;7969.76490951322;287.416756354696;7974.94583710396;2.06538507741493;240.222212393497
49;0.014563;7988.68875281518;199.46551200107;7991.17854135632;1.43029204054965;289.637260268736
50;0.01;7997.03026926062;138.51214682446;7998.22972552605;0.992289348587649;360.544761089712
